X--Trace 1::[Channel A],Y--Trace 1::[Channel A],,X--Trace 2::[Channel B],Y--Trace 2::[Channel B]
0,0,,0,0.000103307
4.38392e-05,5.49502e-05,,4.38392e-05,0.000157672
0.000200089,0.00024869,,0.000200089,0.00034538
0.000356339,0.000432873,,0.000356339,0.000519816
0.000512589,0.00060042,,0.000512589,0.000674275
0.000668839,0.000744894,,0.000668839,0.000802822
0.000825089,0.000860742,,0.000825089,0.000900517
0.000981339,0.000943512,,0.000981339,0.000963606
0.00113759,0.000990024,,0.00113759,0.000989663
0.00129384,0.000998489,,0.00129384,0.000977689
0.00145009,0.000968583,,0.00145009,0.000928143
0.00160634,0.000901455,,0.00160634,0.000842928
0.00176259,0.000799685,,0.00176259,0.000725321
0.00191884,0.000667183,,0.00191884,0.000579839
0.00207509,0.000509041,,0.00207509,0.000412075
0.00223134,0.000331338,,0.00223134,0.000228475
0.00238759,0.000140901,,0.00238759,3.60949e-05
0.00254384,-5.49502e-05,,0.00254384,-0.000157672
0.00270009,-0.00024869,,0.00270009,-0.00034538
0.00285634,-0.000432873,,0.00285634,-0.000519816
0.00301259,-0.00060042,,0.00301259,-0.000674275
0.00316884,-0.000744894,,0.00316884,-0.000802822
0.00332509,-0.000860742,,0.00332509,-0.000900517
0.00348134,-0.000943512,,0.00348134,-0.000963605
0.00363759,-0.000990024,,0.00363759,-0.000989663
0.00379384,-0.000998489,,0.00379384,-0.000977689
0.00395009,-0.000968583,,0.00395009,-0.000928143
0.00410634,-0.000901455,,0.00410634,-0.000842928
0.00426259,-0.000799685,,0.00426259,-0.000725321
0.00441884,-0.000667183,,0.00441884,-0.000579839
0.00457509,-0.000509041,,0.00457509,-0.000412075
0.00473134,-0.000331338,,0.00473134,-0.000228475
0.00488759,-0.000140901,,0.00488759,-3.60951e-05
0.00504384,5.49502e-05,,0.00504384,0.000157672
0.00520009,0.00024869,,0.00520009,0.00034538
0.00535634,0.000432873,,0.00535634,0.000519816
0.00551259,0.00060042,,0.00551259,0.000674275
0.00566884,0.000744894,,0.00566884,0.000802822
0.00582509,0.000860742,,0.00582509,0.000900517
0.00598134,0.000943512,,0.00598134,0.000963606
0.00613759,0.000990024,,0.00613759,0.000989663
0.00629384,0.000998489,,0.00629384,0.000977689
0.00645009,0.000968583,,0.00645009,0.000928143
0.00660634,0.000901455,,0.00660634,0.000842928
0.00676259,0.000799685,,0.00676259,0.000725321
0.00691884,0.000667183,,0.00691884,0.000579839
0.00707509,0.000509041,,0.00707509,0.000412075
0.00723134,0.000331338,,0.00723134,0.000228475
0.00738759,0.000140901,,0.00738759,3.60949e-05
0.00754384,-5.49502e-05,,0.00754384,-0.000157672
0.00770009,-0.00024869,,0.00770009,-0.00034538
0.00785634,-0.000432873,,0.00785634,-0.000519816
0.00801259,-0.00060042,,0.00801259,-0.000674275
0.00816884,-0.000744894,,0.00816884,-0.000802822
0.00832509,-0.000860742,,0.00832509,-0.000900517
0.00848134,-0.000943512,,0.00848134,-0.000963605
0.00863759,-0.000990024,,0.00863759,-0.000989663
0.00879384,-0.000998489,,0.00879384,-0.000977689
0.00895009,-0.000968583,,0.00895009,-0.000928143
0.00910634,-0.000901455,,0.00910634,-0.000842928
0.00926259,-0.000799685,,0.00926259,-0.000725321
0.00941884,-0.000667183,,0.00941884,-0.000579839
0.00957509,-0.000509041,,0.00957509,-0.000412075
0.00973134,-0.000331338,,0.00973134,-0.000228475
0.00988759,-0.000140901,,0.00988759,-3.60951e-05
0.0100438,5.49502e-05,,0.0100438,0.000157672
0.0102001,0.00024869,,0.0102001,0.00034538
0.0103563,0.000432873,,0.0103563,0.000519816
0.0105126,0.00060042,,0.0105126,0.000674275
0.0106688,0.000744894,,0.0106688,0.000802822
0.0108251,0.000860742,,0.0108251,0.000900517
0.0109813,0.000943512,,0.0109813,0.000963606
0.0111376,0.000990024,,0.0111376,0.000989663
0.0112938,0.000998489,,0.0112938,0.000977689
0.0114501,0.000968583,,0.0114501,0.000928143
0.0116063,0.000901455,,0.0116063,0.000842928
0.0117626,0.000799685,,0.0117626,0.000725321
0.0119188,0.000667183,,0.0119188,0.000579839
0.0120751,0.000509041,,0.0120751,0.000412075
0.0122313,0.000331338,,0.0122313,0.000228475
0.0123876,0.000140901,,0.0123876,3.60949e-05
0.0125438,-5.49502e-05,,0.0125438,-0.000157672
0.0127001,-0.00024869,,0.0127001,-0.00034538
0.0128563,-0.000432873,,0.0128563,-0.000519816
0.0130126,-0.00060042,,0.0130126,-0.000674275
0.0131688,-0.000744894,,0.0131688,-0.000802822
0.0133251,-0.000860742,,0.0133251,-0.000900517
0.0134813,-0.000943512,,0.0134813,-0.000963605
0.0136376,-0.000990024,,0.0136376,-0.000989663
0.0137938,-0.000998489,,0.0137938,-0.000977689
0.0139501,-0.000968583,,0.0139501,-0.000928143
0.0141063,-0.000901455,,0.0141063,-0.000842928
0.0142626,-0.000799685,,0.0142626,-0.000725321
0.0144188,-0.000667183,,0.0144188,-0.000579839
0.0145751,-0.000509041,,0.0145751,-0.000412075
0.0147313,-0.000331338,,0.0147313,-0.000228475
0.0148876,-0.000140901,,0.0148876,-3.60951e-05
0.0150438,5.49502e-05,,0.0150438,0.000157672
0.0152001,0.00024869,,0.0152001,0.00034538
0.0153563,0.000432873,,0.0153563,0.000519816
0.0155126,0.00060042,,0.0155126,0.000674275
0.0156688,0.000744894,,0.0156688,0.000802822
0.0158251,0.000860742,,0.0158251,0.000900517
0.0159813,0.000943512,,0.0159813,0.000963606
0.0161376,0.000990024,,0.0161376,0.000989663
0.0162938,0.000998489,,0.0162938,0.000977689
0.0164501,0.000968583,,0.0164501,0.000928143
0.0166063,0.000901455,,0.0166063,0.000842928
0.0167626,0.000799685,,0.0167626,0.000725321
0.0169188,0.000667183,,0.0169188,0.000579839
0.0170751,0.000509041,,0.0170751,0.000412075
0.0172313,0.000331338,,0.0172313,0.000228475
0.0173876,0.000140901,,0.0173876,3.60949e-05
0.0175438,-5.49502e-05,,0.0175438,-0.000157672
0.0177001,-0.00024869,,0.0177001,-0.00034538
0.0178563,-0.000432873,,0.0178563,-0.000519816
0.0180126,-0.00060042,,0.0180126,-0.000674275
0.0181688,-0.000744894,,0.0181688,-0.000802822
0.0183251,-0.000860742,,0.0183251,-0.000900517
0.0184813,-0.000943512,,0.0184813,-0.000963605
0.0186376,-0.000990024,,0.0186376,-0.000989663
0.0187938,-0.000998489,,0.0187938,-0.000977689
0.0189501,-0.000968583,,0.0189501,-0.000928143
0.0191063,-0.000901455,,0.0191063,-0.000842928
0.0192626,-0.000799685,,0.0192626,-0.000725321
0.0194188,-0.000667183,,0.0194188,-0.000579839
0.0195751,-0.000509041,,0.0195751,-0.000412075
0.0197313,-0.000331338,,0.0197313,-0.000228475
0.0198876,-0.000140901,,0.0198876,-3.60951e-05
0.0200438,5.49502e-05,,0.0200438,0.000157672
0.0202001,0.00024869,,0.0202001,0.00034538
0.0203563,0.000432873,,0.0203563,0.000519816
0.0205126,0.00060042,,0.0205126,0.000674275
0.0206688,0.000744894,,0.0206688,0.000802822
0.0208251,0.000860742,,0.0208251,0.000900517
0.0209813,0.000943512,,0.0209813,0.000963606
0.0211376,0.000990024,,0.0211376,0.000989663
0.0212938,0.000998489,,0.0212938,0.000977689
0.0214501,0.000968583,,0.0214501,0.000928143
0.0216063,0.000901455,,0.0216063,0.000842928
0.0217626,0.000799685,,0.0217626,0.000725321
0.0219188,0.000667183,,0.0219188,0.000579839
0.0220751,0.000509041,,0.0220751,0.000412075
0.0222313,0.000331338,,0.0222313,0.000228475
0.0223876,0.000140901,,0.0223876,3.60949e-05
0.0225438,-5.49502e-05,,0.0225438,-0.000157672
0.0227001,-0.00024869,,0.0227001,-0.00034538
0.0228563,-0.000432873,,0.0228563,-0.000519816
0.0230126,-0.00060042,,0.0230126,-0.000674275
0.0231688,-0.000744894,,0.0231688,-0.000802822
0.0233251,-0.000860742,,0.0233251,-0.000900517
0.0234813,-0.000943512,,0.0234813,-0.000963605
0.0236376,-0.000990024,,0.0236376,-0.000989663
0.0237938,-0.000998489,,0.0237938,-0.000977689
0.0239501,-0.000968583,,0.0239501,-0.000928143
0.0241063,-0.000901455,,0.0241063,-0.000842928
0.0242626,-0.000799685,,0.0242626,-0.000725321
0.0244188,-0.000667183,,0.0244188,-0.000579839
0.0245751,-0.000509041,,0.0245751,-0.000412075
0.0247313,-0.000331338,,0.0247313,-0.000228475
0.0248876,-0.000140901,,0.0248876,-3.60951e-05
0.0250438,5.49502e-05,,0.0250438,0.000157672
0.0252001,0.00024869,,0.0252001,0.00034538
0.0253563,0.000432873,,0.0253563,0.000519816
0.0255126,0.00060042,,0.0255126,0.000674275
0.0256688,0.000744894,,0.0256688,0.000802822
0.0258251,0.000860742,,0.0258251,0.000900517
0.0259813,0.000943512,,0.0259813,0.000963606
0.0261376,0.000990024,,0.0261376,0.000989663
0.0262938,0.000998489,,0.0262938,0.000977689
0.0264501,0.000968583,,0.0264501,0.000928143
0.0266063,0.000901455,,0.0266063,0.000842928
0.0267626,0.000799685,,0.0267626,0.000725321
0.0269188,0.000667183,,0.0269188,0.000579839
0.0270751,0.000509041,,0.0270751,0.000412075
0.0272313,0.000331338,,0.0272313,0.000228475
0.0273876,0.000140901,,0.0273876,3.60949e-05
0.0275438,-5.49502e-05,,0.0275438,-0.000157672
0.0277001,-0.00024869,,0.0277001,-0.00034538
0.0278563,-0.000432873,,0.0278563,-0.000519816
0.0280126,-0.00060042,,0.0280126,-0.000674275
0.0281688,-0.000744894,,0.0281688,-0.000802822
0.0283251,-0.000860742,,0.0283251,-0.000900517
0.0284813,-0.000943512,,0.0284813,-0.000963605
0.0286376,-0.000990024,,0.0286376,-0.000989663
0.0287938,-0.000998489,,0.0287938,-0.000977689
0.0289501,-0.000968583,,0.0289501,-0.000928143
0.0291063,-0.000901455,,0.0291063,-0.000842928
0.0292626,-0.000799685,,0.0292626,-0.000725321
0.0294188,-0.000667183,,0.0294188,-0.000579839
0.0295751,-0.000509041,,0.0295751,-0.000412075
0.0297313,-0.000331338,,0.0297313,-0.000228475
0.0298876,-0.000140901,,0.0298876,-3.60951e-05
0.0300438,5.49502e-05,,0.0300438,0.000157672
0.0302001,0.00024869,,0.0302001,0.00034538
0.0303563,0.000432873,,0.0303563,0.000519816
0.0305126,0.00060042,,0.0305126,0.000674275
0.0306688,0.000744894,,0.0306688,0.000802822
0.0308251,0.000860742,,0.0308251,0.000900517
0.0309813,0.000943512,,0.0309813,0.000963606
0.0311376,0.000990024,,0.0311376,0.000989663
0.0312938,0.000998489,,0.0312938,0.000977689
0.0314501,0.000968583,,0.0314501,0.000928143
0.0316063,0.000901455,,0.0316063,0.000842928
0.0317626,0.000799685,,0.0317626,0.000725321
0.0319188,0.000667183,,0.0319188,0.000579839
0.0320751,0.000509041,,0.0320751,0.000412075
0.0322313,0.000331338,,0.0322313,0.000228475
0.0323876,0.000140901,,0.0323876,3.60949e-05
0.0325438,-5.49502e-05,,0.0325438,-0.000157672
0.0327001,-0.00024869,,0.0327001,-0.00034538
0.0328563,-0.000432873,,0.0328563,-0.000519816
0.0330126,-0.00060042,,0.0330126,-0.000674275
0.0331688,-0.000744894,,0.0331688,-0.000802822
0.0333251,-0.000860742,,0.0333251,-0.000900517
0.0334813,-0.000943512,,0.0334813,-0.000963605
0.0336376,-0.000990024,,0.0336376,-0.000989663
0.0337938,-0.000998489,,0.0337938,-0.000977689
0.0339501,-0.000968583,,0.0339501,-0.000928143
0.0341063,-0.000901455,,0.0341063,-0.000842928
0.0342626,-0.000799685,,0.0342626,-0.000725321
0.0344188,-0.000667183,,0.0344188,-0.000579839
0.0345751,-0.000509041,,0.0345751,-0.000412075
0.0347313,-0.000331338,,0.0347313,-0.000228475
0.0348876,-0.000140901,,0.0348876,-3.60951e-05
0.0350438,5.49502e-05,,0.0350438,0.000157672
0.0352001,0.00024869,,0.0352001,0.00034538
0.0353563,0.000432873,,0.0353563,0.000519816
0.0355126,0.00060042,,0.0355126,0.000674275
0.0356688,0.000744894,,0.0356688,0.000802822
0.0358251,0.000860742,,0.0358251,0.000900517
0.0359813,0.000943512,,0.0359813,0.000963606
0.0361376,0.000990024,,0.0361376,0.000989663
0.0362938,0.000998489,,0.0362938,0.000977689
0.0364501,0.000968583,,0.0364501,0.000928143
0.0366063,0.000901455,,0.0366063,0.000842928
0.0367626,0.000799685,,0.0367626,0.000725321
0.0369188,0.000667183,,0.0369188,0.000579839
0.0370751,0.000509041,,0.0370751,0.000412075
0.0372313,0.000331338,,0.0372313,0.000228475
0.0373876,0.000140901,,0.0373876,3.60949e-05
0.0375438,-5.49502e-05,,0.0375438,-0.000157672
0.0377001,-0.00024869,,0.0377001,-0.00034538
0.0378563,-0.000432873,,0.0378563,-0.000519816
0.0380126,-0.00060042,,0.0380126,-0.000674275
0.0381688,-0.000744894,,0.0381688,-0.000802822
0.0383251,-0.000860742,,0.0383251,-0.000900517
0.0384813,-0.000943512,,0.0384813,-0.000963605
0.0386376,-0.000990024,,0.0386376,-0.000989663
0.0387938,-0.000998489,,0.0387938,-0.000977689
0.0389501,-0.000968583,,0.0389501,-0.000928143
0.0391063,-0.000901455,,0.0391063,-0.000842928
0.0392626,-0.000799685,,0.0392626,-0.000725321
0.0394188,-0.000667183,,0.0394188,-0.000579839
0.0395751,-0.000509041,,0.0395751,-0.000412075
0.0397313,-0.000331338,,0.0397313,-0.000228475
0.0398876,-0.000140901,,0.0398876,-3.60951e-05
0.0400438,5.49502e-05,,0.0400438,0.000157672
0.0402001,0.00024869,,0.0402001,0.00034538
0.0403563,0.000432873,,0.0403563,0.000519816
0.0405126,0.00060042,,0.0405126,0.000674275
0.0406688,0.000744894,,0.0406688,0.000802822
0.0408251,0.000860742,,0.0408251,0.000900517
0.0409813,0.000943512,,0.0409813,0.000963606
0.0411376,0.000990024,,0.0411376,0.000989663
0.0412938,0.000998489,,0.0412938,0.000977689
0.0414501,0.000968583,,0.0414501,0.000928143
0.0416063,0.000901455,,0.0416063,0.000842928
0.0417626,0.000799685,,0.0417626,0.000725321
0.0419188,0.000667183,,0.0419188,0.000579839
0.0420751,0.000509041,,0.0420751,0.000412075
0.0422313,0.000331338,,0.0422313,0.000228475
0.0423876,0.000140901,,0.0423876,3.60949e-05
0.0425438,-5.49502e-05,,0.0425438,-0.000157672
0.0427001,-0.00024869,,0.0427001,-0.00034538
0.0428563,-0.000432873,,0.0428563,-0.000519816
0.0430126,-0.00060042,,0.0430126,-0.000674275
0.0431688,-0.000744894,,0.0431688,-0.000802822
0.0433251,-0.000860742,,0.0433251,-0.000900517
0.0434813,-0.000943512,,0.0434813,-0.000963605
0.0436376,-0.000990024,,0.0436376,-0.000989663
0.0437938,-0.000998489,,0.0437938,-0.000977689
0.0439501,-0.000968583,,0.0439501,-0.000928143
0.0441063,-0.000901455,,0.0441063,-0.000842928
0.0442626,-0.000799685,,0.0442626,-0.000725321
0.0444188,-0.000667183,,0.0444188,-0.000579839
0.0445751,-0.000509041,,0.0445751,-0.000412075
0.0447313,-0.000331338,,0.0447313,-0.000228475
0.0448876,-0.000140901,,0.0448876,-3.60951e-05
0.0450438,5.49502e-05,,0.0450438,0.000157672
0.0452001,0.00024869,,0.0452001,0.00034538
0.0453563,0.000432873,,0.0453563,0.000519816
0.0455126,0.00060042,,0.0455126,0.000674275
0.0456688,0.000744894,,0.0456688,0.000802822
0.0458251,0.000860742,,0.0458251,0.000900517
0.0459813,0.000943512,,0.0459813,0.000963606
0.0461376,0.000990024,,0.0461376,0.000989663
0.0462938,0.000998489,,0.0462938,0.000977689
0.0464501,0.000968583,,0.0464501,0.000928143
0.0466063,0.000901455,,0.0466063,0.000842928
0.0467626,0.000799685,,0.0467626,0.000725321
0.0469188,0.000667183,,0.0469188,0.000579839
0.0470751,0.000509041,,0.0470751,0.000412075
0.0472313,0.000331338,,0.0472313,0.000228475
0.0473876,0.000140901,,0.0473876,3.60949e-05
0.0475438,-5.49502e-05,,0.0475438,-0.000157672
0.0477001,-0.00024869,,0.0477001,-0.00034538
0.0478563,-0.000432873,,0.0478563,-0.000519816
0.0480126,-0.00060042,,0.0480126,-0.000674275
0.0481688,-0.000744894,,0.0481688,-0.000802822
0.0483251,-0.000860742,,0.0483251,-0.000900517
0.0484813,-0.000943512,,0.0484813,-0.000963605
0.0486376,-0.000990024,,0.0486376,-0.000989663
0.0487938,-0.000998489,,0.0487938,-0.000977689
0.0489501,-0.000968583,,0.0489501,-0.000928143
0.0491063,-0.000901455,,0.0491063,-0.000842928
0.0492626,-0.000799685,,0.0492626,-0.000725321
0.0494188,-0.000667183,,0.0494188,-0.000579839
0.0495751,-0.000509041,,0.0495751,-0.000412075
0.0497313,-0.000331338,,0.0497313,-0.000228475
0.0498876,-0.000140901,,0.0498876,-3.60951e-05
0.0500438,5.49502e-05,,0.0500438,0.000157672
0.0502001,0.00024869,,0.0502001,0.00034538
0.0503563,0.000432873,,0.0503563,0.000519816
0.0505126,0.00060042,,0.0505126,0.000674275
0.0506688,0.000744894,,0.0506688,0.000802822
0.0508251,0.000860742,,0.0508251,0.000900517
0.0509813,0.000943512,,0.0509813,0.000963606
0.0511376,0.000990024,,0.0511376,0.000989663
0.0512938,0.000998489,,0.0512938,0.000977689
0.0514501,0.000968583,,0.0514501,0.000928143
0.0516063,0.000901455,,0.0516063,0.000842928
0.0517626,0.000799685,,0.0517626,0.000725321
0.0519188,0.000667183,,0.0519188,0.000579839
0.0520751,0.000509041,,0.0520751,0.000412075
0.0522313,0.000331338,,0.0522313,0.000228475
0.0523876,0.000140901,,0.0523876,3.60949e-05
0.0525438,-5.49502e-05,,0.0525438,-0.000157672
0.0527001,-0.00024869,,0.0527001,-0.00034538
0.0528563,-0.000432873,,0.0528563,-0.000519816
0.0530126,-0.00060042,,0.0530126,-0.000674275
0.0531688,-0.000744894,,0.0531688,-0.000802822
0.0533251,-0.000860742,,0.0533251,-0.000900517
0.0534813,-0.000943512,,0.0534813,-0.000963605
0.0536376,-0.000990024,,0.0536376,-0.000989663
0.0537938,-0.000998489,,0.0537938,-0.000977689
0.0539501,-0.000968583,,0.0539501,-0.000928143
0.0541063,-0.000901455,,0.0541063,-0.000842928
0.0542626,-0.000799685,,0.0542626,-0.000725321
0.0544188,-0.000667183,,0.0544188,-0.000579839
0.0545751,-0.000509041,,0.0545751,-0.000412075
0.0547313,-0.000331338,,0.0547313,-0.000228475
0.0548876,-0.000140901,,0.0548876,-3.60951e-05
0.0550438,5.49502e-05,,0.0550438,0.000157672
0.0552001,0.00024869,,0.0552001,0.00034538
0.0553563,0.000432873,,0.0553563,0.000519816
0.0555126,0.00060042,,0.0555126,0.000674275
0.0556688,0.000744894,,0.0556688,0.000802822
0.0558251,0.000860742,,0.0558251,0.000900517
0.0559813,0.000943512,,0.0559813,0.000963606
0.0561376,0.000990024,,0.0561376,0.000989663
0.0562938,0.000998489,,0.0562938,0.000977689
0.0564501,0.000968583,,0.0564501,0.000928143
0.0566063,0.000901455,,0.0566063,0.000842928
0.0567626,0.000799685,,0.0567626,0.000725321
0.0569188,0.000667183,,0.0569188,0.000579839
0.0570751,0.000509041,,0.0570751,0.000412075
0.0572313,0.000331338,,0.0572313,0.000228475
0.0573876,0.000140901,,0.0573876,3.60949e-05
0.0575438,-5.49502e-05,,0.0575438,-0.000157672
0.0577001,-0.00024869,,0.0577001,-0.00034538
0.0578563,-0.000432873,,0.0578563,-0.000519816
0.0580126,-0.00060042,,0.0580126,-0.000674275
0.0581688,-0.000744894,,0.0581688,-0.000802822
0.0583251,-0.000860742,,0.0583251,-0.000900517
0.0584813,-0.000943512,,0.0584813,-0.000963605
0.0586376,-0.000990024,,0.0586376,-0.000989663
0.0587938,-0.000998489,,0.0587938,-0.000977689
0.0589501,-0.000968583,,0.0589501,-0.000928143
0.0591063,-0.000901455,,0.0591063,-0.000842928
0.0592626,-0.000799685,,0.0592626,-0.000725321
0.0594188,-0.000667183,,0.0594188,-0.000579839
0.0595751,-0.000509041,,0.0595751,-0.000412075
0.0597313,-0.000331338,,0.0597313,-0.000228475
0.0598876,-0.000140901,,0.0598876,-3.60951e-05
0.0600438,5.49502e-05,,0.0600438,0.000157672
0.0602001,0.00024869,,0.0602001,0.00034538
0.0603563,0.000432873,,0.0603563,0.000519816
0.0605126,0.00060042,,0.0605126,0.000674275
0.0606688,0.000744894,,0.0606688,0.000802822
0.0608251,0.000860742,,0.0608251,0.000900517
0.0609813,0.000943512,,0.0609813,0.000963606
0.0611376,0.000990024,,0.0611376,0.000989663
0.0612938,0.000998489,,0.0612938,0.000977689
0.0614501,0.000968583,,0.0614501,0.000928143
0.0616063,0.000901455,,0.0616063,0.000842928
0.0617626,0.000799685,,0.0617626,0.000725321
0.0619188,0.000667183,,0.0619188,0.000579839
0.0620751,0.000509041,,0.0620751,0.000412075
0.0622313,0.000331338,,0.0622313,0.000228475
0.0623876,0.000140901,,0.0623876,3.60949e-05
0.0625438,-5.49502e-05,,0.0625438,-0.000157672
0.0627001,-0.00024869,,0.0627001,-0.00034538
0.0628563,-0.000432873,,0.0628563,-0.000519816
0.0630126,-0.00060042,,0.0630126,-0.000674275
0.0631688,-0.000744894,,0.0631688,-0.000802822
0.0633251,-0.000860742,,0.0633251,-0.000900517
0.0634813,-0.000943512,,0.0634813,-0.000963605
0.0636376,-0.000990024,,0.0636376,-0.000989663
0.0637938,-0.000998489,,0.0637938,-0.000977689
0.0639501,-0.000968583,,0.0639501,-0.000928143
0.0641063,-0.000901455,,0.0641063,-0.000842928
0.0642626,-0.000799685,,0.0642626,-0.000725321
0.0644188,-0.000667183,,0.0644188,-0.000579839
0.0645751,-0.000509041,,0.0645751,-0.000412075
0.0647313,-0.000331338,,0.0647313,-0.000228475
0.0648876,-0.000140901,,0.0648876,-3.60951e-05
0.0650438,5.49502e-05,,0.0650438,0.000157672
0.0652001,0.00024869,,0.0652001,0.00034538
0.0653563,0.000432873,,0.0653563,0.000519816
0.0655126,0.00060042,,0.0655126,0.000674275
0.0656688,0.000744894,,0.0656688,0.000802822
0.0658251,0.000860742,,0.0658251,0.000900517
0.0659813,0.000943512,,0.0659813,0.000963606
0.0661376,0.000990024,,0.0661376,0.000989663
0.0662938,0.000998489,,0.0662938,0.000977689
0.0664501,0.000968583,,0.0664501,0.000928143
0.0666063,0.000901455,,0.0666063,0.000842928
0.0667626,0.000799685,,0.0667626,0.000725321
0.0669188,0.000667183,,0.0669188,0.000579839
0.0670751,0.000509041,,0.0670751,0.000412075
0.0672313,0.000331338,,0.0672313,0.000228475
